
T20A4 000:407 SEGGER J-Link V4.80g Log File (0000ms, 0266ms total)
T20A4 000:407 DLL Compiled: Feb 13 2014 20:50:02 (0000ms, 0266ms total)
T20A4 000:407 Logging started @ 2020-03-24 15:30 (0000ms, 0266ms total)
T20A4 000:407 JLINK_SetWarnOutHandler(...) (0000ms, 0266ms total)
T20A4 000:407 JLINK_OpenEx(...)
Firmware: J-Link ARM V8 compiled Dec  1 2015 11:42:48
Hardware: V8.00
S/N: 20080643
Feature(s): RDI,FlashDL,FlashBP,JFlash,GDBFull  returns O.K. (0263ms, 0529ms total)
T20A4 000:670 JLINK_SetErrorOutHandler(...) (0000ms, 0529ms total)
T20A4 000:670 JLINK_ExecCommand("ProjectFile = "D:\TU LIEU CONG VIEC\THIEN NAM\FIMWARE M4 KIEL V5\SHC211 - TEST\JLinkSettings.ini"", ...)  returns 0x00 (0000ms, 0529ms total)
T20A4 000:675 JLINK_ExecCommand("Device = TM4C123AE6PM", ...)Device "TM4C123AE6PM" selected (128 KB flash, 32 KB RAM).  returns 0x00 (0002ms, 0531ms total)
T20A4 000:677 JLINK_ExecCommand("DisableConnectionTimeout", ...)  returns 0x01 (0000ms, 0531ms total)
T20A4 000:677 JLINK_GetHardwareVersion()  returns 0x13880 (0000ms, 0531ms total)
T20A4 000:677 JLINK_GetDLLVersion()  returns 48007 (0000ms, 0531ms total)
T20A4 000:677 JLINK_GetFirmwareString(...) (0000ms, 0531ms total)
T20A4 000:684 JLINK_GetDLLVersion()  returns 48007 (0000ms, 0531ms total)
T20A4 000:684 JLINK_GetCompileDateTime() (0000ms, 0531ms total)
T20A4 000:687 JLINK_GetFirmwareString(...) (0000ms, 0531ms total)
T20A4 000:689 JLINK_GetHardwareVersion()  returns 0x13880 (0000ms, 0531ms total)
T20A4 000:695 JLINK_TIF_Select(JLINKARM_TIF_JTAG)  returns 0x00 (0002ms, 0533ms total)
T20A4 000:697 JLINK_SetSpeed(5000) (0001ms, 0534ms total)
T20A4 000:698 JLINK_GetIdData(...) >0x2F8 JTAG>TotalIRLen = 4, IRPrint = 0x01 >0x30 JTAG> >0x210 JTAG> >0x70 JTAG> >0x40 JTAG> >0x40 JTAG> >0x40 JTAG> >0x48 JTAG> >0x78 JTAG> >0x40 JTAG> >0x30 JTAG> >0x40 JTAG> >0x40 JTAG> >0x30 JTAG> >0x40 JTAG> >0x48 JTAG>Found Cortex-M4 r0p1, Little endian. >0x1D0 JTAG> >0x1D8 JTAG> >0x1D0 JTAG> >0x1D8 JTAG>FPUnit: 6 code (BP) slots and 2 literal slots >0x1D8 JTAG> >0x1D0 JTAG> >0x1D8 JTAG> >0x1D0 JTAG> >0x1D8 JTAG>TPIU fitted. >0x1D8 JTAG>ETM fitted. >0x1D8 JTAG>
 -- CPU is running >0x1D8 JTAG> ScanLen=4 NumDevices=1 aId[0]=0x4BA00477 aIrRead[0]=0 aScanLen[0]=0 aScanRead[0]=0 (0031ms, 0565ms total)
T20A4 000:729 JLINK_JTAG_GetDeviceID(DeviceIndex = 0)  returns 0x4BA00477 (0000ms, 0565ms total)
T20A4 000:729 JLINK_JTAG_GetDeviceInfo(DeviceIndex = 0)  returns 0x00 (0000ms, 0565ms total)
T20A4 000:729 JLINK_GetDeviceFamily()  returns 14 (0000ms, 0565ms total)
T20A4 000:730 JLINK_ReadMem (0xE00FFFF0, 0x0010 Bytes, ...) -- CPU is running >0x288 JTAG> -- Data:  0D 00 00 00 10 00 00 00 05 00 00 00 B1 00 00 00  returns 0x00 (0002ms, 0567ms total)
T20A4 000:732 JLINK_ReadMem (0xE00FFFD0, 0x0020 Bytes, ...) -- CPU is running >0x370 JTAG> -- Data:  04 00 00 00 00 00 00 00 00 00 00 00 00 00 00 00 ...  returns 0x00 (0001ms, 0568ms total)
T20A4 000:733 JLINK_ReadMem (0xE00FF000, 0x0018 Bytes, ...) -- CPU is running >0x2F8 JTAG> -- Data:  03 F0 F0 FF 03 20 F0 FF 03 30 F0 FF 03 10 F0 FF ...  returns 0x00 (0001ms, 0569ms total)
T20A4 000:734 JLINK_ReadMemU32(0xE000ED00, 0x0001 Items, ...) -- CPU is running >0x1D8 JTAG> -- Data:  41 C2 0F 41  returns 0x01 (0001ms, 0570ms total)
T20A4 000:735 JLINK_ReadMemU32(0xE000EF40, 0x0001 Items, ...) -- CPU is running >0x1D8 JTAG> -- Data:  21 00 11 10  returns 0x01 (0001ms, 0571ms total)
T20A4 000:736 JLINK_ReadMemU32(0xE000EF44, 0x0001 Items, ...) -- CPU is running >0x1D8 JTAG> -- Data:  11 00 00 11  returns 0x01 (0001ms, 0572ms total)
T20A4 000:737 JLINK_SetResetType(JLINKARM_RESET_TYPE_NORMAL)  returns JLINKARM_RESET_TYPE_NORMAL (0000ms, 0572ms total)
T20A4 000:737 JLINK_Reset() -- CPU is running >0x1D0 JTAG> -- CPU is running >0x1D0 JTAG> -- CPU is running >0x208 JTAG> -- CPU is running >0x1D8 JTAG> -- CPU is running >0x1D8 JTAG> -- CPU is running >0x1D0 JTAG> -- CPU is running >0x1D0 JTAG> -- CPU is running >0x1D8 JTAG> >0x170 JTAG> >0x1598 JTAG> >0x40 JTAG> >0x40 JTAG> >0x30 JTAG> >0x40 JTAG> >0x48 JTAG> >0x40 JTAG> >0x1D0 JTAG> >0x1D0 JTAG> >0x1D0 JTAG> >0x1D0 JTAG> >0x1D0 JTAG> >0x1D8 JTAG> >0x1D0 JTAG> >0x1D8 JTAG> >0x1D8 JTAG>
 (0039ms, 0611ms total)
T20A4 000:776 JLINK_Halt()  returns 0x00 (0000ms, 0611ms total)
T20A4 000:776 JLINK_IsHalted()  returns TRUE (0000ms, 0611ms total)
T20A4 000:776 JLINK_ReadMemU32(0xE000EDF0, 0x0001 Items, ...) >0x1D8 JTAG> -- Data:  03 00 03 00  returns 0x01 (0001ms, 0612ms total)
T20A4 000:777 JLINK_WriteU32(0xE000EDF0, 0xA05F0003) >0x1D0 JTAG>  returns 0x00 (0001ms, 0613ms total)
T20A4 000:778 JLINK_WriteU32(0xE000EDFC, 0x01000000) >0x1D0 JTAG>  returns 0x00 (0001ms, 0614ms total)
T20A4 000:783 JLINK_GetHWStatus(...)  returns 0x00 (0001ms, 0615ms total)
T20A4 000:787 JLINK_GetNumBPUnits(Type = 0xFFFFFF00)  returns 0x06 (0000ms, 0615ms total)
T20A4 000:787 JLINK_GetNumBPUnits(Type = 0xF0)  returns 0x2000 (0000ms, 0615ms total)
T20A4 000:787 JLINK_GetNumWPUnits()  returns 0x04 (0000ms, 0615ms total)
T20A4 000:790 JLINK_GetSpeed()  returns 0x12C0 (0000ms, 0615ms total)
T20A4 000:792 JLINK_ReadMemU32(0xE000E004, 0x0001 Items, ...) >0x1D8 JTAG> -- Data:  04 00 00 00  returns 0x01 (0001ms, 0616ms total)
T20A4 000:793 JLINK_ReadMemU32(0xE000E004, 0x0001 Items, ...) >0x1D8 JTAG> -- Data:  04 00 00 00  returns 0x01 (0001ms, 0617ms total)
T20A4 000:794 JLINK_WriteMem(0xE0001000, 0x001C Bytes, ...) -- Data:  01 00 00 00 00 00 00 00 00 00 00 00 00 00 00 00 ... >0x2F0 JTAG>  returns 0x1C (0001ms, 0618ms total)
T20A4 000:795 JLINK_ReadMem (0xE0001000, 0x001C Bytes, ...) >0x338 JTAG> -- Data:  01 00 00 40 00 00 00 00 00 00 00 00 00 00 00 00 ...  returns 0x00 (0002ms, 0620ms total)
T20A4 000:797 JLINK_Halt()  returns 0x00 (0000ms, 0620ms total)
T20A4 000:797 JLINK_IsHalted()  returns TRUE (0000ms, 0620ms total)
T20A4 000:799 JLINK_WriteMem(0x20000000, 0x0128 Bytes, ...) -- Data:  00 BE 0A E0 0D 78 2D 06 68 40 08 24 40 00 00 D3 ... >0xF38 JTAG>  returns 0x128 (0004ms, 0624ms total)
T20A4 000:803 JLINK_WriteReg(R0, 0x00000000)  returns 0x00 (0000ms, 0624ms total)
T20A4 000:803 JLINK_WriteReg(R1, 0x04C4B400)  returns 0x00 (0000ms, 0624ms total)
T20A4 000:803 JLINK_WriteReg(R2, 0x00000001)  returns 0x00 (0000ms, 0624ms total)
T20A4 000:803 JLINK_WriteReg(R3, 0x00000000)  returns 0x00 (0000ms, 0624ms total)
T20A4 000:803 JLINK_WriteReg(R4, 0x00000000)  returns 0x00 (0000ms, 0624ms total)
T20A4 000:803 JLINK_WriteReg(R5, 0x00000000)  returns 0x00 (0000ms, 0624ms total)
T20A4 000:803 JLINK_WriteReg(R6, 0x00000000)  returns 0x00 (0000ms, 0624ms total)
T20A4 000:803 JLINK_WriteReg(R7, 0x00000000)  returns 0x00 (0000ms, 0624ms total)
T20A4 000:803 JLINK_WriteReg(R8, 0x00000000)  returns 0x00 (0000ms, 0624ms total)
T20A4 000:803 JLINK_WriteReg(R9, 0x20000124)  returns 0x00 (0000ms, 0624ms total)
T20A4 000:803 JLINK_WriteReg(R10, 0x00000000)  returns 0x00 (0000ms, 0624ms total)
T20A4 000:803 JLINK_WriteReg(R11, 0x00000000)  returns 0x00 (0000ms, 0624ms total)
T20A4 000:803 JLINK_WriteReg(R12, 0x00000000)  returns 0x00 (0000ms, 0624ms total)
T20A4 000:803 JLINK_WriteReg(R13 (SP), 0x20001000)  returns 0x00 (0000ms, 0624ms total)
T20A4 000:803 JLINK_WriteReg(R14, 0x20000001)  returns 0x00 (0000ms, 0624ms total)
T20A4 000:803 JLINK_WriteReg(R15 (PC), 0x20000038)  returns 0x00 (0000ms, 0624ms total)
T20A4 000:803 JLINK_WriteReg(XPSR, 0x01000000)  returns 0x00 (0000ms, 0624ms total)
T20A4 000:803 JLINK_WriteReg(MSP, 0x20001000)  returns 0x00 (0000ms, 0624ms total)
T20A4 000:803 JLINK_WriteReg(PSP, 0x20001000)  returns 0x00 (0000ms, 0624ms total)
T20A4 000:803 JLINK_WriteReg(CFBP, 0x00000000)  returns 0x00 (0000ms, 0624ms total)
T20A4 000:803 JLINK_SetBPEx(Addr = 0x20000000, Type = 0xFFFFFFF2) >0x1D8 JTAG>  returns 0x00000001 (0002ms, 0626ms total)
T20A4 000:805 JLINK_Go() >0x1D0 JTAG> >0x1D0 JTAG> >0x1D0 JTAG> >0x1D0 JTAG> >0x1D0 JTAG> >0x1D0 JTAG> >0x1D0 JTAG> >0x2C8 JTAG> >0x1E8 JTAG> >0x1E8 JTAG> >0x1E8 JTAG> >0x1E8 JTAG> >0x1E8 JTAG> >0x1E8 JTAG> >0x218 JTAG> >0x218 JTAG> (0017ms, 0643ms total)
T20A4 000:822 JLINK_IsHalted() >0x170 JTAG> >0x1598 JTAG> >0x1D8 JTAG>  returns TRUE (0006ms, 0649ms total)
T20A4 000:828 JLINK_ReadReg(R15 (PC))  returns 0x20000000 (0000ms, 0643ms total)
T20A4 000:828 JLINK_ClrBPEx(BPHandle = 0x00000001)  returns 0x00 (0000ms, 0643ms total)
T20A4 000:828 JLINK_ReadReg(R0)  returns 0x00000000 (0000ms, 0643ms total)
T20A4 000:829 JLINK_WriteReg(R0, 0x00000000)  returns 0x00 (0000ms, 0643ms total)
T20A4 000:829 JLINK_WriteReg(R1, 0x04C4B400)  returns 0x00 (0000ms, 0643ms total)
T20A4 000:829 JLINK_WriteReg(R2, 0x00000001)  returns 0x00 (0000ms, 0643ms total)
T20A4 000:829 JLINK_WriteReg(R3, 0x00000000)  returns 0x00 (0000ms, 0643ms total)
T20A4 000:829 JLINK_WriteReg(R4, 0x00000000)  returns 0x00 (0000ms, 0643ms total)
T20A4 000:829 JLINK_WriteReg(R5, 0x00000000)  returns 0x00 (0000ms, 0643ms total)
T20A4 000:829 JLINK_WriteReg(R6, 0x00000000)  returns 0x00 (0000ms, 0643ms total)
T20A4 000:829 JLINK_WriteReg(R7, 0x00000000)  returns 0x00 (0000ms, 0643ms total)
T20A4 000:829 JLINK_WriteReg(R8, 0x00000000)  returns 0x00 (0000ms, 0643ms total)
T20A4 000:829 JLINK_WriteReg(R9, 0x20000124)  returns 0x00 (0000ms, 0643ms total)
T20A4 000:829 JLINK_WriteReg(R10, 0x00000000)  returns 0x00 (0000ms, 0643ms total)
T20A4 000:829 JLINK_WriteReg(R11, 0x00000000)  returns 0x00 (0000ms, 0643ms total)
T20A4 000:829 JLINK_WriteReg(R12, 0x00000000)  returns 0x00 (0000ms, 0643ms total)
T20A4 000:829 JLINK_WriteReg(R13 (SP), 0x20001000)  returns 0x00 (0000ms, 0643ms total)
T20A4 000:829 JLINK_WriteReg(R14, 0x20000001)  returns 0x00 (0000ms, 0643ms total)
T20A4 000:829 JLINK_WriteReg(R15 (PC), 0x20000056)  returns 0x00 (0000ms, 0643ms total)
T20A4 000:829 JLINK_WriteReg(XPSR, 0x01000000)  returns 0x00 (0000ms, 0643ms total)
T20A4 000:829 JLINK_WriteReg(MSP, 0x20001000)  returns 0x00 (0000ms, 0643ms total)
T20A4 000:829 JLINK_WriteReg(PSP, 0x20001000)  returns 0x00 (0000ms, 0643ms total)
T20A4 000:829 JLINK_WriteReg(CFBP, 0x00000000)  returns 0x00 (0000ms, 0643ms total)
T20A4 000:829 JLINK_SetBPEx(Addr = 0x20000000, Type = 0xFFFFFFF2)  returns 0x00000002 (0000ms, 0643ms total)
T20A4 000:829 JLINK_Go() >0x2C8 JTAG> >0x1E8 JTAG> >0x1E8 JTAG> >0x218 JTAG> >0x218 JTAG> (0006ms, 0649ms total)
T20A4 000:835 JLINK_IsHalted() >0x170 JTAG>  returns FALSE (0001ms, 0650ms total)
T20A4 000:873 JLINK_IsHalted() >0x170 JTAG> >0x1598 JTAG> >0x1D8 JTAG>  returns TRUE (0005ms, 0654ms total)
T20A4 000:878 JLINK_ReadReg(R15 (PC))  returns 0x20000000 (0000ms, 0649ms total)
T20A4 000:878 JLINK_ClrBPEx(BPHandle = 0x00000002)  returns 0x00 (0000ms, 0649ms total)
T20A4 000:878 JLINK_ReadReg(R0)  returns 0x00000000 (0000ms, 0649ms total)
T20A4 000:929 JLINK_WriteReg(R0, 0x00000001)  returns 0x00 (0000ms, 0649ms total)
T20A4 000:929 JLINK_WriteReg(R1, 0x04C4B400)  returns 0x00 (0000ms, 0649ms total)
T20A4 000:929 JLINK_WriteReg(R2, 0x00000001)  returns 0x00 (0000ms, 0649ms total)
T20A4 000:929 JLINK_WriteReg(R3, 0x00000000)  returns 0x00 (0000ms, 0649ms total)
T20A4 000:929 JLINK_WriteReg(R4, 0x00000000)  returns 0x00 (0000ms, 0649ms total)
T20A4 000:929 JLINK_WriteReg(R5, 0x00000000)  returns 0x00 (0000ms, 0649ms total)
T20A4 000:929 JLINK_WriteReg(R6, 0x00000000)  returns 0x00 (0000ms, 0649ms total)
T20A4 000:929 JLINK_WriteReg(R7, 0x00000000)  returns 0x00 (0000ms, 0649ms total)
T20A4 000:929 JLINK_WriteReg(R8, 0x00000000)  returns 0x00 (0000ms, 0649ms total)
T20A4 000:929 JLINK_WriteReg(R9, 0x20000124)  returns 0x00 (0000ms, 0649ms total)
T20A4 000:929 JLINK_WriteReg(R10, 0x00000000)  returns 0x00 (0000ms, 0649ms total)
T20A4 000:929 JLINK_WriteReg(R11, 0x00000000)  returns 0x00 (0000ms, 0649ms total)
T20A4 000:929 JLINK_WriteReg(R12, 0x00000000)  returns 0x00 (0001ms, 0650ms total)
T20A4 000:930 JLINK_WriteReg(R13 (SP), 0x20001000)  returns 0x00 (0000ms, 0650ms total)
T20A4 000:930 JLINK_WriteReg(R14, 0x20000001)  returns 0x00 (0000ms, 0650ms total)
T20A4 000:930 JLINK_WriteReg(R15 (PC), 0x20000052)  returns 0x00 (0000ms, 0650ms total)
T20A4 000:930 JLINK_WriteReg(XPSR, 0x01000000)  returns 0x00 (0000ms, 0650ms total)
T20A4 000:930 JLINK_WriteReg(MSP, 0x20001000)  returns 0x00 (0000ms, 0650ms total)
T20A4 000:930 JLINK_WriteReg(PSP, 0x20001000)  returns 0x00 (0000ms, 0650ms total)
T20A4 000:930 JLINK_WriteReg(CFBP, 0x00000000)  returns 0x00 (0000ms, 0650ms total)
T20A4 000:930 JLINK_SetBPEx(Addr = 0x20000000, Type = 0xFFFFFFF2)  returns 0x00000003 (0000ms, 0650ms total)
T20A4 000:930 JLINK_Go() >0x2C8 JTAG> >0x1E8 JTAG> >0x1E8 JTAG> >0x1E8 JTAG> >0x218 JTAG> >0x218 JTAG> (0006ms, 0656ms total)
T20A4 000:936 JLINK_IsHalted() >0x170 JTAG> >0x1598 JTAG> >0x1D8 JTAG>  returns TRUE (0006ms, 0662ms total)
T20A4 000:942 JLINK_ReadReg(R15 (PC))  returns 0x20000000 (0000ms, 0656ms total)
T20A4 000:942 JLINK_ClrBPEx(BPHandle = 0x00000003)  returns 0x00 (0000ms, 0656ms total)
T20A4 000:942 JLINK_ReadReg(R0)  returns 0x00000000 (0000ms, 0656ms total)
T20A4 000:945 JLINK_WriteMem(0x20000000, 0x0128 Bytes, ...) -- Data:  00 BE 0A E0 0D 78 2D 06 68 40 08 24 40 00 00 D3 ... >0xF38 JTAG>  returns 0x128 (0003ms, 0659ms total)
T20A4 000:948 JLINK_WriteReg(R0, 0x00000000)  returns 0x00 (0000ms, 0659ms total)
T20A4 000:948 JLINK_WriteReg(R1, 0x04C4B400)  returns 0x00 (0000ms, 0659ms total)
T20A4 000:948 JLINK_WriteReg(R2, 0x00000002)  returns 0x00 (0000ms, 0659ms total)
T20A4 000:948 JLINK_WriteReg(R3, 0x00000000)  returns 0x00 (0000ms, 0659ms total)
T20A4 000:948 JLINK_WriteReg(R4, 0x00000000)  returns 0x00 (0000ms, 0659ms total)
T20A4 000:948 JLINK_WriteReg(R5, 0x00000000)  returns 0x00 (0000ms, 0659ms total)
T20A4 000:948 JLINK_WriteReg(R6, 0x00000000)  returns 0x00 (0000ms, 0659ms total)
T20A4 000:948 JLINK_WriteReg(R7, 0x00000000)  returns 0x00 (0000ms, 0659ms total)
T20A4 000:948 JLINK_WriteReg(R8, 0x00000000)  returns 0x00 (0000ms, 0659ms total)
T20A4 000:948 JLINK_WriteReg(R9, 0x20000124)  returns 0x00 (0000ms, 0659ms total)
T20A4 000:948 JLINK_WriteReg(R10, 0x00000000)  returns 0x00 (0000ms, 0659ms total)
T20A4 000:948 JLINK_WriteReg(R11, 0x00000000)  returns 0x00 (0000ms, 0659ms total)
T20A4 000:948 JLINK_WriteReg(R12, 0x00000000)  returns 0x00 (0000ms, 0659ms total)
T20A4 000:948 JLINK_WriteReg(R13 (SP), 0x20001000)  returns 0x00 (0000ms, 0659ms total)
T20A4 000:948 JLINK_WriteReg(R14, 0x20000001)  returns 0x00 (0000ms, 0659ms total)
T20A4 000:948 JLINK_WriteReg(R15 (PC), 0x20000038)  returns 0x00 (0000ms, 0659ms total)
T20A4 000:948 JLINK_WriteReg(XPSR, 0x01000000)  returns 0x00 (0000ms, 0659ms total)
T20A4 000:948 JLINK_WriteReg(MSP, 0x20001000)  returns 0x00 (0000ms, 0659ms total)
T20A4 000:948 JLINK_WriteReg(PSP, 0x20001000)  returns 0x00 (0000ms, 0659ms total)
T20A4 000:948 JLINK_WriteReg(CFBP, 0x00000000)  returns 0x00 (0000ms, 0659ms total)
T20A4 000:948 JLINK_SetBPEx(Addr = 0x20000000, Type = 0xFFFFFFF2) >0x1D8 JTAG>  returns 0x00000004 (0001ms, 0660ms total)
T20A4 000:949 JLINK_Go() >0x1D0 JTAG> >0x2C8 JTAG> >0x1E8 JTAG> >0x1E8 JTAG> >0x218 JTAG> >0x218 JTAG> (0007ms, 0667ms total)
T20A4 000:956 JLINK_IsHalted() >0x170 JTAG> >0x1598 JTAG> >0x1D8 JTAG>  returns TRUE (0006ms, 0673ms total)
T20A4 000:962 JLINK_ReadReg(R15 (PC))  returns 0x20000000 (0000ms, 0667ms total)
T20A4 000:962 JLINK_ClrBPEx(BPHandle = 0x00000004)  returns 0x00 (0000ms, 0667ms total)
T20A4 000:962 JLINK_ReadReg(R0)  returns 0x00000000 (0000ms, 0667ms total)
T20A4 000:962 JLINK_WriteMem(0x20000128, 0x0400 Bytes, ...) -- Data:  A8 08 00 20 6D 02 00 00 81 02 00 00 83 02 00 00 ... >0x30A0 JTAG>  returns 0x400 (0007ms, 0674ms total)
T20A4 000:969 JLINK_WriteReg(R0, 0x00000000)  returns 0x00 (0000ms, 0674ms total)
T20A4 000:969 JLINK_WriteReg(R1, 0x00000400)  returns 0x00 (0000ms, 0674ms total)
T20A4 000:969 JLINK_WriteReg(R2, 0x20000128)  returns 0x00 (0000ms, 0674ms total)
T20A4 000:969 JLINK_WriteReg(R3, 0x00000000)  returns 0x00 (0000ms, 0674ms total)
T20A4 000:969 JLINK_WriteReg(R4, 0x00000000)  returns 0x00 (0000ms, 0674ms total)
T20A4 000:969 JLINK_WriteReg(R5, 0x00000000)  returns 0x00 (0000ms, 0674ms total)
T20A4 000:969 JLINK_WriteReg(R6, 0x00000000)  returns 0x00 (0000ms, 0674ms total)
T20A4 000:969 JLINK_WriteReg(R7, 0x00000000)  returns 0x00 (0000ms, 0674ms total)
T20A4 000:969 JLINK_WriteReg(R8, 0x00000000)  returns 0x00 (0000ms, 0674ms total)
T20A4 000:969 JLINK_WriteReg(R9, 0x20000124)  returns 0x00 (0000ms, 0674ms total)
T20A4 000:969 JLINK_WriteReg(R10, 0x00000000)  returns 0x00 (0000ms, 0674ms total)
T20A4 000:969 JLINK_WriteReg(R11, 0x00000000)  returns 0x00 (0000ms, 0674ms total)
T20A4 000:969 JLINK_WriteReg(R12, 0x00000000)  returns 0x00 (0000ms, 0674ms total)
T20A4 000:969 JLINK_WriteReg(R13 (SP), 0x20001000)  returns 0x00 (0000ms, 0674ms total)
T20A4 000:969 JLINK_WriteReg(R14, 0x20000001)  returns 0x00 (0000ms, 0674ms total)
T20A4 000:969 JLINK_WriteReg(R15 (PC), 0x20000092)  returns 0x00 (0000ms, 0674ms total)
T20A4 000:969 JLINK_WriteReg(XPSR, 0x01000000)  returns 0x00 (0000ms, 0674ms total)
T20A4 000:969 JLINK_WriteReg(MSP, 0x20001000)  returns 0x00 (0000ms, 0674ms total)
T20A4 000:969 JLINK_WriteReg(PSP, 0x20001000)  returns 0x00 (0000ms, 0674ms total)
T20A4 000:969 JLINK_WriteReg(CFBP, 0x00000000)  returns 0x00 (0000ms, 0674ms total)
T20A4 000:969 JLINK_SetBPEx(Addr = 0x20000000, Type = 0xFFFFFFF2)  returns 0x00000005 (0000ms, 0674ms total)
T20A4 000:969 JLINK_Go() >0x2C8 JTAG> >0x1E8 JTAG> >0x1E8 JTAG> >0x1E8 JTAG> >0x218 JTAG> >0x218 JTAG> (0007ms, 0681ms total)
T20A4 000:976 JLINK_IsHalted() >0x170 JTAG>  returns FALSE (0001ms, 0682ms total)
T20A4 000:990 JLINK_IsHalted() >0x170 JTAG> >0x1598 JTAG> >0x1D8 JTAG>  returns TRUE (0006ms, 0687ms total)
T20A4 000:996 JLINK_ReadReg(R15 (PC))  returns 0x20000000 (0000ms, 0681ms total)
T20A4 000:996 JLINK_ClrBPEx(BPHandle = 0x00000005)  returns 0x00 (0000ms, 0681ms total)
T20A4 000:996 JLINK_ReadReg(R0)  returns 0x00000000 (0000ms, 0681ms total)
T20A4 000:997 JLINK_WriteMem(0x20000128, 0x0400 Bytes, ...) -- Data:  01 25 AA 4E 04 46 0E 28 0C D0 00 21 38 46 01 F0 ... >0x30A0 JTAG>  returns 0x400 (0007ms, 0688ms total)
T20A4 001:004 JLINK_WriteReg(R0, 0x00000400)  returns 0x00 (0000ms, 0688ms total)
T20A4 001:004 JLINK_WriteReg(R1, 0x00000400)  returns 0x00 (0000ms, 0688ms total)
T20A4 001:004 JLINK_WriteReg(R2, 0x20000128)  returns 0x00 (0001ms, 0689ms total)
T20A4 001:005 JLINK_WriteReg(R3, 0x00000000)  returns 0x00 (0000ms, 0689ms total)
T20A4 001:005 JLINK_WriteReg(R4, 0x00000000)  returns 0x00 (0000ms, 0689ms total)
T20A4 001:005 JLINK_WriteReg(R5, 0x00000000)  returns 0x00 (0000ms, 0689ms total)
T20A4 001:005 JLINK_WriteReg(R6, 0x00000000)  returns 0x00 (0000ms, 0689ms total)
T20A4 001:005 JLINK_WriteReg(R7, 0x00000000)  returns 0x00 (0000ms, 0689ms total)
T20A4 001:005 JLINK_WriteReg(R8, 0x00000000)  returns 0x00 (0000ms, 0689ms total)
T20A4 001:005 JLINK_WriteReg(R9, 0x20000124)  returns 0x00 (0000ms, 0689ms total)
T20A4 001:005 JLINK_WriteReg(R10, 0x00000000)  returns 0x00 (0000ms, 0689ms total)
T20A4 001:005 JLINK_WriteReg(R11, 0x00000000)  returns 0x00 (0000ms, 0689ms total)
T20A4 001:005 JLINK_WriteReg(R12, 0x00000000)  returns 0x00 (0000ms, 0689ms total)
T20A4 001:005 JLINK_WriteReg(R13 (SP), 0x20001000)  returns 0x00 (0000ms, 0689ms total)
T20A4 001:005 JLINK_WriteReg(R14, 0x20000001)  returns 0x00 (0000ms, 0689ms total)
T20A4 001:005 JLINK_WriteReg(R15 (PC), 0x20000092)  returns 0x00 (0000ms, 0689ms total)
T20A4 001:005 JLINK_WriteReg(XPSR, 0x01000000)  returns 0x00 (0000ms, 0689ms total)
T20A4 001:005 JLINK_WriteReg(MSP, 0x20001000)  returns 0x00 (0000ms, 0689ms total)
T20A4 001:005 JLINK_WriteReg(PSP, 0x20001000)  returns 0x00 (0000ms, 0689ms total)
T20A4 001:005 JLINK_WriteReg(CFBP, 0x00000000)  returns 0x00 (0000ms, 0689ms total)
T20A4 001:005 JLINK_SetBPEx(Addr = 0x20000000, Type = 0xFFFFFFF2)  returns 0x00000006 (0000ms, 0689ms total)
T20A4 001:005 JLINK_Go() >0x2C8 JTAG> >0x1E8 JTAG> >0x1E8 JTAG> >0x1E8 JTAG> >0x1E8 JTAG> >0x1E8 JTAG> >0x218 JTAG> >0x218 JTAG> (0009ms, 0698ms total)
T20A4 001:014 JLINK_IsHalted() >0x170 JTAG>  returns FALSE (0001ms, 0699ms total)
T20A4 001:021 JLINK_IsHalted() >0x170 JTAG>  returns FALSE (0001ms, 0699ms total)
T20A4 001:023 JLINK_IsHalted() >0x170 JTAG> >0x1598 JTAG> >0x1D8 JTAG>  returns TRUE (0006ms, 0704ms total)
T20A4 001:029 JLINK_ReadReg(R15 (PC))  returns 0x20000000 (0000ms, 0698ms total)
T20A4 001:029 JLINK_ClrBPEx(BPHandle = 0x00000006)  returns 0x00 (0000ms, 0698ms total)
T20A4 001:029 JLINK_ReadReg(R0)  returns 0x00000000 (0000ms, 0698ms total)
T20A4 001:030 JLINK_WriteMem(0x20000128, 0x0400 Bytes, ...) -- Data:  00 00 40 1C 8D F8 00 00 9D F8 00 00 64 28 F6 D3 ... >0x30A0 JTAG>  returns 0x400 (0007ms, 0705ms total)
T20A4 001:037 JLINK_WriteReg(R0, 0x00000800)  returns 0x00 (0000ms, 0705ms total)
T20A4 001:037 JLINK_WriteReg(R1, 0x00000400)  returns 0x00 (0000ms, 0705ms total)
T20A4 001:037 JLINK_WriteReg(R2, 0x20000128)  returns 0x00 (0000ms, 0705ms total)
T20A4 001:037 JLINK_WriteReg(R3, 0x00000000)  returns 0x00 (0000ms, 0705ms total)
T20A4 001:037 JLINK_WriteReg(R4, 0x00000000)  returns 0x00 (0000ms, 0705ms total)
T20A4 001:037 JLINK_WriteReg(R5, 0x00000000)  returns 0x00 (0000ms, 0705ms total)
T20A4 001:037 JLINK_WriteReg(R6, 0x00000000)  returns 0x00 (0000ms, 0705ms total)
T20A4 001:037 JLINK_WriteReg(R7, 0x00000000)  returns 0x00 (0000ms, 0705ms total)
T20A4 001:037 JLINK_WriteReg(R8, 0x00000000)  returns 0x00 (0000ms, 0705ms total)
T20A4 001:037 JLINK_WriteReg(R9, 0x20000124)  returns 0x00 (0000ms, 0705ms total)
T20A4 001:037 JLINK_WriteReg(R10, 0x00000000)  returns 0x00 (0000ms, 0705ms total)
T20A4 001:037 JLINK_WriteReg(R11, 0x00000000)  returns 0x00 (0000ms, 0705ms total)
T20A4 001:037 JLINK_WriteReg(R12, 0x00000000)  returns 0x00 (0000ms, 0705ms total)
T20A4 001:037 JLINK_WriteReg(R13 (SP), 0x20001000)  returns 0x00 (0000ms, 0705ms total)
T20A4 001:037 JLINK_WriteReg(R14, 0x20000001)  returns 0x00 (0000ms, 0705ms total)
T20A4 001:037 JLINK_WriteReg(R15 (PC), 0x20000092)  returns 0x00 (0000ms, 0705ms total)
T20A4 001:037 JLINK_WriteReg(XPSR, 0x01000000)  returns 0x00 (0000ms, 0705ms total)
T20A4 001:037 JLINK_WriteReg(MSP, 0x20001000)  returns 0x00 (0000ms, 0705ms total)
T20A4 001:037 JLINK_WriteReg(PSP, 0x20001000)  returns 0x00 (0000ms, 0705ms total)
T20A4 001:037 JLINK_WriteReg(CFBP, 0x00000000)  returns 0x00 (0000ms, 0705ms total)
T20A4 001:037 JLINK_SetBPEx(Addr = 0x20000000, Type = 0xFFFFFFF2)  returns 0x00000007 (0000ms, 0705ms total)
T20A4 001:037 JLINK_Go() >0x2C8 JTAG> >0x1E8 JTAG> >0x1E8 JTAG> >0x1E8 JTAG> >0x1E8 JTAG> >0x1E8 JTAG> >0x218 JTAG> >0x218 JTAG> (0010ms, 0715ms total)
T20A4 001:047 JLINK_IsHalted() >0x170 JTAG>  returns FALSE (0001ms, 0716ms total)
T20A4 001:050 JLINK_IsHalted() >0x170 JTAG>  returns FALSE (0000ms, 0715ms total)
T20A4 001:051 JLINK_IsHalted() >0x170 JTAG>  returns FALSE (0001ms, 0716ms total)
T20A4 001:053 JLINK_IsHalted() >0x170 JTAG>  returns FALSE (0001ms, 0716ms total)
T20A4 001:055 JLINK_IsHalted() >0x170 JTAG>  returns FALSE (0001ms, 0716ms total)
T20A4 001:057 JLINK_IsHalted() >0x170 JTAG> >0x1598 JTAG> >0x1D8 JTAG>  returns TRUE (0006ms, 0721ms total)
T20A4 001:063 JLINK_ReadReg(R15 (PC))  returns 0x20000000 (0000ms, 0715ms total)
T20A4 001:063 JLINK_ClrBPEx(BPHandle = 0x00000007)  returns 0x00 (0000ms, 0715ms total)
T20A4 001:063 JLINK_ReadReg(R0)  returns 0x00000000 (0000ms, 0715ms total)
T20A4 001:064 JLINK_WriteMem(0x20000128, 0x0400 Bytes, ...) -- Data:  44 4C 20 6E 10 B1 40 1E 20 66 12 D1 4B 49 20 78 ... >0x30A0 JTAG>  returns 0x400 (0007ms, 0722ms total)
T20A4 001:071 JLINK_WriteReg(R0, 0x00000C00)  returns 0x00 (0000ms, 0722ms total)
T20A4 001:071 JLINK_WriteReg(R1, 0x00000400)  returns 0x00 (0000ms, 0722ms total)
T20A4 001:071 JLINK_WriteReg(R2, 0x20000128)  returns 0x00 (0000ms, 0722ms total)
T20A4 001:071 JLINK_WriteReg(R3, 0x00000000)  returns 0x00 (0000ms, 0722ms total)
T20A4 001:071 JLINK_WriteReg(R4, 0x00000000)  returns 0x00 (0000ms, 0722ms total)
T20A4 001:071 JLINK_WriteReg(R5, 0x00000000)  returns 0x00 (0000ms, 0722ms total)
T20A4 001:071 JLINK_WriteReg(R6, 0x00000000)  returns 0x00 (0000ms, 0722ms total)
T20A4 001:071 JLINK_WriteReg(R7, 0x00000000)  returns 0x00 (0000ms, 0722ms total)
T20A4 001:071 JLINK_WriteReg(R8, 0x00000000)  returns 0x00 (0000ms, 0722ms total)
T20A4 001:071 JLINK_WriteReg(R9, 0x20000124)  returns 0x00 (0000ms, 0722ms total)
T20A4 001:071 JLINK_WriteReg(R10, 0x00000000)  returns 0x00 (0000ms, 0722ms total)
T20A4 001:071 JLINK_WriteReg(R11, 0x00000000)  returns 0x00 (0000ms, 0722ms total)
T20A4 001:071 JLINK_WriteReg(R12, 0x00000000)  returns 0x00 (0000ms, 0722ms total)
T20A4 001:071 JLINK_WriteReg(R13 (SP), 0x20001000)  returns 0x00 (0000ms, 0722ms total)
T20A4 001:071 JLINK_WriteReg(R14, 0x20000001)  returns 0x00 (0000ms, 0722ms total)
T20A4 001:071 JLINK_WriteReg(R15 (PC), 0x20000092)  returns 0x00 (0000ms, 0722ms total)
T20A4 001:071 JLINK_WriteReg(XPSR, 0x01000000)  returns 0x00 (0000ms, 0722ms total)
T20A4 001:071 JLINK_WriteReg(MSP, 0x20001000)  returns 0x00 (0000ms, 0722ms total)
T20A4 001:071 JLINK_WriteReg(PSP, 0x20001000)  returns 0x00 (0000ms, 0722ms total)
T20A4 001:071 JLINK_WriteReg(CFBP, 0x00000000)  returns 0x00 (0000ms, 0722ms total)
T20A4 001:071 JLINK_SetBPEx(Addr = 0x20000000, Type = 0xFFFFFFF2)  returns 0x00000008 (0000ms, 0722ms total)
T20A4 001:071 JLINK_Go() >0x2C8 JTAG> >0x1E8 JTAG> >0x1E8 JTAG> >0x1E8 JTAG> >0x1E8 JTAG> >0x1E8 JTAG> >0x218 JTAG> >0x218 JTAG> (0009ms, 0731ms total)
T20A4 001:080 JLINK_IsHalted() >0x170 JTAG>  returns FALSE (0001ms, 0732ms total)
T20A4 001:082 JLINK_IsHalted() >0x170 JTAG>  returns FALSE (0001ms, 0732ms total)
T20A4 001:084 JLINK_IsHalted() >0x170 JTAG>  returns FALSE (0001ms, 0732ms total)
T20A4 001:086 JLINK_IsHalted() >0x170 JTAG>  returns FALSE (0001ms, 0732ms total)
T20A4 001:088 JLINK_IsHalted() >0x170 JTAG>  returns FALSE (0001ms, 0732ms total)
T20A4 001:090 JLINK_IsHalted() >0x170 JTAG> >0x1598 JTAG> >0x1D8 JTAG>  returns TRUE (0006ms, 0737ms total)
T20A4 001:096 JLINK_ReadReg(R15 (PC))  returns 0x20000000 (0000ms, 0731ms total)
T20A4 001:096 JLINK_ClrBPEx(BPHandle = 0x00000008)  returns 0x00 (0000ms, 0731ms total)
T20A4 001:096 JLINK_ReadReg(R0)  returns 0x00000000 (0000ms, 0731ms total)
T20A4 001:097 JLINK_WriteMem(0x20000128, 0x0400 Bytes, ...) -- Data:  28 46 00 F0 72 FD 8D F8 00 40 04 E0 9D F8 00 10 ... >0x30A0 JTAG>  returns 0x400 (0007ms, 0738ms total)
T20A4 001:104 JLINK_WriteReg(R0, 0x00001000)  returns 0x00 (0000ms, 0738ms total)
T20A4 001:104 JLINK_WriteReg(R1, 0x00000400)  returns 0x00 (0000ms, 0738ms total)
T20A4 001:104 JLINK_WriteReg(R2, 0x20000128)  returns 0x00 (0000ms, 0738ms total)
T20A4 001:104 JLINK_WriteReg(R3, 0x00000000)  returns 0x00 (0000ms, 0738ms total)
T20A4 001:104 JLINK_WriteReg(R4, 0x00000000)  returns 0x00 (0000ms, 0738ms total)
T20A4 001:104 JLINK_WriteReg(R5, 0x00000000)  returns 0x00 (0000ms, 0738ms total)
T20A4 001:104 JLINK_WriteReg(R6, 0x00000000)  returns 0x00 (0000ms, 0738ms total)
T20A4 001:104 JLINK_WriteReg(R7, 0x00000000)  returns 0x00 (0000ms, 0738ms total)
T20A4 001:104 JLINK_WriteReg(R8, 0x00000000)  returns 0x00 (0000ms, 0738ms total)
T20A4 001:104 JLINK_WriteReg(R9, 0x20000124)  returns 0x00 (0000ms, 0738ms total)
T20A4 001:104 JLINK_WriteReg(R10, 0x00000000)  returns 0x00 (0000ms, 0738ms total)
T20A4 001:104 JLINK_WriteReg(R11, 0x00000000)  returns 0x00 (0000ms, 0738ms total)
T20A4 001:104 JLINK_WriteReg(R12, 0x00000000)  returns 0x00 (0000ms, 0738ms total)
T20A4 001:104 JLINK_WriteReg(R13 (SP), 0x20001000)  returns 0x00 (0000ms, 0738ms total)
T20A4 001:104 JLINK_WriteReg(R14, 0x20000001)  returns 0x00 (0000ms, 0738ms total)
T20A4 001:104 JLINK_WriteReg(R15 (PC), 0x20000092)  returns 0x00 (0000ms, 0738ms total)
T20A4 001:104 JLINK_WriteReg(XPSR, 0x01000000)  returns 0x00 (0000ms, 0738ms total)
T20A4 001:104 JLINK_WriteReg(MSP, 0x20001000)  returns 0x00 (0000ms, 0738ms total)
T20A4 001:104 JLINK_WriteReg(PSP, 0x20001000)  returns 0x00 (0000ms, 0738ms total)
T20A4 001:104 JLINK_WriteReg(CFBP, 0x00000000)  returns 0x00 (0000ms, 0738ms total)
T20A4 001:104 JLINK_SetBPEx(Addr = 0x20000000, Type = 0xFFFFFFF2)  returns 0x00000009 (0000ms, 0738ms total)
T20A4 001:104 JLINK_Go() >0x2C8 JTAG> >0x1E8 JTAG> >0x1E8 JTAG> >0x1E8 JTAG> >0x1E8 JTAG> >0x1E8 JTAG> >0x218 JTAG> >0x218 JTAG> (0009ms, 0747ms total)
T20A4 001:113 JLINK_IsHalted() >0x170 JTAG>  returns FALSE (0001ms, 0748ms total)
T20A4 001:119 JLINK_IsHalted() >0x170 JTAG>  returns FALSE (0001ms, 0748ms total)
T20A4 001:121 JLINK_IsHalted() >0x170 JTAG>  returns FALSE (0001ms, 0748ms total)
T20A4 001:124 JLINK_IsHalted() >0x170 JTAG> >0x1598 JTAG> >0x1D8 JTAG>  returns TRUE (0005ms, 0752ms total)
T20A4 001:129 JLINK_ReadReg(R15 (PC))  returns 0x20000000 (0000ms, 0747ms total)
T20A4 001:129 JLINK_ClrBPEx(BPHandle = 0x00000009)  returns 0x00 (0001ms, 0748ms total)
T20A4 001:130 JLINK_ReadReg(R0)  returns 0x00000000 (0000ms, 0748ms total)
T20A4 001:130 JLINK_WriteMem(0x20000128, 0x0400 Bytes, ...) -- Data:  14 04 00 20 38 01 00 20 AC 00 00 20 C8 00 00 20 ... >0x30A0 JTAG>  returns 0x400 (0007ms, 0755ms total)
T20A4 001:137 JLINK_WriteReg(R0, 0x00001400)  returns 0x00 (0000ms, 0755ms total)
T20A4 001:137 JLINK_WriteReg(R1, 0x00000400)  returns 0x00 (0000ms, 0755ms total)
T20A4 001:137 JLINK_WriteReg(R2, 0x20000128)  returns 0x00 (0000ms, 0755ms total)
T20A4 001:137 JLINK_WriteReg(R3, 0x00000000)  returns 0x00 (0000ms, 0755ms total)
T20A4 001:137 JLINK_WriteReg(R4, 0x00000000)  returns 0x00 (0000ms, 0755ms total)
T20A4 001:137 JLINK_WriteReg(R5, 0x00000000)  returns 0x00 (0000ms, 0755ms total)
T20A4 001:137 JLINK_WriteReg(R6, 0x00000000)  returns 0x00 (0000ms, 0755ms total)
T20A4 001:137 JLINK_WriteReg(R7, 0x00000000)  returns 0x00 (0000ms, 0755ms total)
T20A4 001:137 JLINK_WriteReg(R8, 0x00000000)  returns 0x00 (0000ms, 0755ms total)
T20A4 001:137 JLINK_WriteReg(R9, 0x20000124)  returns 0x00 (0000ms, 0755ms total)
T20A4 001:137 JLINK_WriteReg(R10, 0x00000000)  returns 0x00 (0000ms, 0755ms total)
T20A4 001:137 JLINK_WriteReg(R11, 0x00000000)  returns 0x00 (0000ms, 0755ms total)
T20A4 001:137 JLINK_WriteReg(R12, 0x00000000)  returns 0x00 (0000ms, 0755ms total)
T20A4 001:137 JLINK_WriteReg(R13 (SP), 0x20001000)  returns 0x00 (0000ms, 0755ms total)
T20A4 001:138 JLINK_WriteReg(R14, 0x20000001)  returns 0x00 (0000ms, 0755ms total)
T20A4 001:138 JLINK_WriteReg(R15 (PC), 0x20000092)  returns 0x00 (0000ms, 0755ms total)
T20A4 001:138 JLINK_WriteReg(XPSR, 0x01000000)  returns 0x00 (0000ms, 0755ms total)
T20A4 001:138 JLINK_WriteReg(MSP, 0x20001000)  returns 0x00 (0000ms, 0755ms total)
T20A4 001:138 JLINK_WriteReg(PSP, 0x20001000)  returns 0x00 (0000ms, 0755ms total)
T20A4 001:138 JLINK_WriteReg(CFBP, 0x00000000)  returns 0x00 (0000ms, 0755ms total)
T20A4 001:138 JLINK_SetBPEx(Addr = 0x20000000, Type = 0xFFFFFFF2)  returns 0x0000000A (0000ms, 0755ms total)
T20A4 001:138 JLINK_Go() >0x2C8 JTAG> >0x1E8 JTAG> >0x1E8 JTAG> >0x1E8 JTAG> >0x1E8 JTAG> >0x1E8 JTAG> >0x218 JTAG> >0x218 JTAG> (0009ms, 0764ms total)
T20A4 001:147 JLINK_IsHalted() >0x170 JTAG>  returns FALSE (0001ms, 0765ms total)
T20A4 001:152 JLINK_IsHalted() >0x170 JTAG>  returns FALSE (0001ms, 0765ms total)
T20A4 001:154 JLINK_IsHalted() >0x170 JTAG>  returns FALSE (0001ms, 0765ms total)
T20A4 001:156 JLINK_IsHalted() >0x170 JTAG> >0x1598 JTAG> >0x1D8 JTAG>  returns TRUE (0006ms, 0770ms total)
T20A4 001:162 JLINK_ReadReg(R15 (PC))  returns 0x20000000 (0000ms, 0764ms total)
T20A4 001:162 JLINK_ClrBPEx(BPHandle = 0x0000000A)  returns 0x00 (0000ms, 0764ms total)
T20A4 001:162 JLINK_ReadReg(R0)  returns 0x00000000 (0000ms, 0764ms total)
T20A4 001:163 JLINK_WriteMem(0x20000128, 0x0400 Bytes, ...) -- Data:  38 0F 1C BF 41 F4 80 51 48 F0 40 08 48 F0 20 08 ... >0x30A0 JTAG>  returns 0x400 (0007ms, 0771ms total)
T20A4 001:170 JLINK_WriteReg(R0, 0x00001800)  returns 0x00 (0000ms, 0771ms total)
T20A4 001:170 JLINK_WriteReg(R1, 0x00000400)  returns 0x00 (0000ms, 0771ms total)
T20A4 001:170 JLINK_WriteReg(R2, 0x20000128)  returns 0x00 (0000ms, 0771ms total)
T20A4 001:170 JLINK_WriteReg(R3, 0x00000000)  returns 0x00 (0000ms, 0771ms total)
T20A4 001:170 JLINK_WriteReg(R4, 0x00000000)  returns 0x00 (0000ms, 0771ms total)
T20A4 001:170 JLINK_WriteReg(R5, 0x00000000)  returns 0x00 (0000ms, 0771ms total)
T20A4 001:170 JLINK_WriteReg(R6, 0x00000000)  returns 0x00 (0000ms, 0771ms total)
T20A4 001:170 JLINK_WriteReg(R7, 0x00000000)  returns 0x00 (0000ms, 0771ms total)
T20A4 001:170 JLINK_WriteReg(R8, 0x00000000)  returns 0x00 (0000ms, 0771ms total)
T20A4 001:170 JLINK_WriteReg(R9, 0x20000124)  returns 0x00 (0000ms, 0771ms total)
T20A4 001:170 JLINK_WriteReg(R10, 0x00000000)  returns 0x00 (0000ms, 0771ms total)
T20A4 001:170 JLINK_WriteReg(R11, 0x00000000)  returns 0x00 (0000ms, 0771ms total)
T20A4 001:170 JLINK_WriteReg(R12, 0x00000000)  returns 0x00 (0000ms, 0771ms total)
T20A4 001:170 JLINK_WriteReg(R13 (SP), 0x20001000)  returns 0x00 (0000ms, 0771ms total)
T20A4 001:170 JLINK_WriteReg(R14, 0x20000001)  returns 0x00 (0000ms, 0771ms total)
T20A4 001:170 JLINK_WriteReg(R15 (PC), 0x20000092)  returns 0x00 (0000ms, 0771ms total)
T20A4 001:170 JLINK_WriteReg(XPSR, 0x01000000)  returns 0x00 (0000ms, 0771ms total)
T20A4 001:170 JLINK_WriteReg(MSP, 0x20001000)  returns 0x00 (0000ms, 0771ms total)
T20A4 001:170 JLINK_WriteReg(PSP, 0x20001000)  returns 0x00 (0000ms, 0771ms total)
T20A4 001:170 JLINK_WriteReg(CFBP, 0x00000000)  returns 0x00 (0000ms, 0771ms total)
T20A4 001:170 JLINK_SetBPEx(Addr = 0x20000000, Type = 0xFFFFFFF2)  returns 0x0000000B (0000ms, 0771ms total)
T20A4 001:170 JLINK_Go() >0x2C8 JTAG> >0x1E8 JTAG> >0x1E8 JTAG> >0x1E8 JTAG> >0x1E8 JTAG> >0x1E8 JTAG> >0x218 JTAG> >0x218 JTAG> (0009ms, 0780ms total)
T20A4 001:179 JLINK_IsHalted() >0x170 JTAG>  returns FALSE (0001ms, 0781ms total)
T20A4 001:183 JLINK_IsHalted() >0x170 JTAG>  returns FALSE (0001ms, 0781ms total)
T20A4 001:185 JLINK_IsHalted() >0x170 JTAG>  returns FALSE (0001ms, 0781ms total)
T20A4 001:187 JLINK_IsHalted() >0x170 JTAG>  returns FALSE (0001ms, 0781ms total)
T20A4 001:189 JLINK_IsHalted() >0x170 JTAG> >0x1598 JTAG> >0x1D8 JTAG>  returns TRUE (0006ms, 0786ms total)
T20A4 001:195 JLINK_ReadReg(R15 (PC))  returns 0x20000000 (0000ms, 0780ms total)
T20A4 001:195 JLINK_ClrBPEx(BPHandle = 0x0000000B)  returns 0x00 (0000ms, 0780ms total)
T20A4 001:195 JLINK_ReadReg(R0)  returns 0x00000000 (0000ms, 0780ms total)
T20A4 001:195 JLINK_WriteMem(0x20000128, 0x0400 Bytes, ...) -- Data:  10 C0 04 EB 90 20 42 F4 80 02 0C F4 70 4C BC F5 ... >0x30A0 JTAG>  returns 0x400 (0007ms, 0787ms total)
T20A4 001:202 JLINK_WriteReg(R0, 0x00001C00)  returns 0x00 (0000ms, 0787ms total)
T20A4 001:202 JLINK_WriteReg(R1, 0x00000400)  returns 0x00 (0000ms, 0787ms total)
T20A4 001:202 JLINK_WriteReg(R2, 0x20000128)  returns 0x00 (0000ms, 0787ms total)
T20A4 001:202 JLINK_WriteReg(R3, 0x00000000)  returns 0x00 (0000ms, 0787ms total)
T20A4 001:202 JLINK_WriteReg(R4, 0x00000000)  returns 0x00 (0000ms, 0787ms total)
T20A4 001:202 JLINK_WriteReg(R5, 0x00000000)  returns 0x00 (0000ms, 0787ms total)
T20A4 001:202 JLINK_WriteReg(R6, 0x00000000)  returns 0x00 (0000ms, 0787ms total)
T20A4 001:202 JLINK_WriteReg(R7, 0x00000000)  returns 0x00 (0000ms, 0787ms total)
T20A4 001:202 JLINK_WriteReg(R8, 0x00000000)  returns 0x00 (0001ms, 0788ms total)
T20A4 001:203 JLINK_WriteReg(R9, 0x20000124)  returns 0x00 (0000ms, 0788ms total)
T20A4 001:203 JLINK_WriteReg(R10, 0x00000000)  returns 0x00 (0000ms, 0788ms total)
T20A4 001:203 JLINK_WriteReg(R11, 0x00000000)  returns 0x00 (0000ms, 0788ms total)
T20A4 001:203 JLINK_WriteReg(R12, 0x00000000)  returns 0x00 (0000ms, 0788ms total)
T20A4 001:203 JLINK_WriteReg(R13 (SP), 0x20001000)  returns 0x00 (0000ms, 0788ms total)
T20A4 001:203 JLINK_WriteReg(R14, 0x20000001)  returns 0x00 (0000ms, 0788ms total)
T20A4 001:203 JLINK_WriteReg(R15 (PC), 0x20000092)  returns 0x00 (0000ms, 0788ms total)
T20A4 001:203 JLINK_WriteReg(XPSR, 0x01000000)  returns 0x00 (0000ms, 0788ms total)
T20A4 001:203 JLINK_WriteReg(MSP, 0x20001000)  returns 0x00 (0000ms, 0788ms total)
T20A4 001:203 JLINK_WriteReg(PSP, 0x20001000)  returns 0x00 (0000ms, 0788ms total)
T20A4 001:203 JLINK_WriteReg(CFBP, 0x00000000)  returns 0x00 (0000ms, 0788ms total)
T20A4 001:203 JLINK_SetBPEx(Addr = 0x20000000, Type = 0xFFFFFFF2)  returns 0x0000000C (0000ms, 0788ms total)
T20A4 001:203 JLINK_Go() >0x2C8 JTAG> >0x1E8 JTAG> >0x1E8 JTAG> >0x1E8 JTAG> >0x1E8 JTAG> >0x1E8 JTAG> >0x218 JTAG> >0x218 JTAG> (0009ms, 0797ms total)
T20A4 001:212 JLINK_IsHalted() >0x170 JTAG>  returns FALSE (0001ms, 0798ms total)
T20A4 001:217 JLINK_IsHalted() >0x170 JTAG>  returns FALSE (0001ms, 0798ms total)
T20A4 001:219 JLINK_IsHalted() >0x170 JTAG>  returns FALSE (0001ms, 0798ms total)
T20A4 001:221 JLINK_IsHalted() >0x170 JTAG> >0x1598 JTAG> >0x1D8 JTAG>  returns TRUE (0006ms, 0803ms total)
T20A4 001:227 JLINK_ReadReg(R15 (PC))  returns 0x20000000 (0000ms, 0797ms total)
T20A4 001:227 JLINK_ClrBPEx(BPHandle = 0x0000000C)  returns 0x00 (0000ms, 0797ms total)
T20A4 001:227 JLINK_ReadReg(R0)  returns 0x00000000 (0000ms, 0797ms total)
T20A4 001:228 JLINK_WriteMem(0x20000128, 0x0400 Bytes, ...) -- Data:  00 00 00 00 00 00 00 00 00 00 00 00 00 00 00 00 ... >0x30A0 JTAG>  returns 0x400 (0007ms, 0804ms total)
T20A4 001:235 JLINK_WriteReg(R0, 0x00002000)  returns 0x00 (0000ms, 0804ms total)
T20A4 001:235 JLINK_WriteReg(R1, 0x00000400)  returns 0x00 (0000ms, 0804ms total)
T20A4 001:235 JLINK_WriteReg(R2, 0x20000128)  returns 0x00 (0000ms, 0804ms total)
T20A4 001:235 JLINK_WriteReg(R3, 0x00000000)  returns 0x00 (0000ms, 0804ms total)
T20A4 001:235 JLINK_WriteReg(R4, 0x00000000)  returns 0x00 (0000ms, 0804ms total)
T20A4 001:235 JLINK_WriteReg(R5, 0x00000000)  returns 0x00 (0000ms, 0804ms total)
T20A4 001:235 JLINK_WriteReg(R6, 0x00000000)  returns 0x00 (0000ms, 0804ms total)
T20A4 001:235 JLINK_WriteReg(R7, 0x00000000)  returns 0x00 (0000ms, 0804ms total)
T20A4 001:235 JLINK_WriteReg(R8, 0x00000000)  returns 0x00 (0000ms, 0804ms total)
T20A4 001:235 JLINK_WriteReg(R9, 0x20000124)  returns 0x00 (0000ms, 0804ms total)
T20A4 001:235 JLINK_WriteReg(R10, 0x00000000)  returns 0x00 (0000ms, 0804ms total)
T20A4 001:235 JLINK_WriteReg(R11, 0x00000000)  returns 0x00 (0000ms, 0804ms total)
T20A4 001:235 JLINK_WriteReg(R12, 0x00000000)  returns 0x00 (0000ms, 0804ms total)
T20A4 001:235 JLINK_WriteReg(R13 (SP), 0x20001000)  returns 0x00 (0000ms, 0804ms total)
T20A4 001:235 JLINK_WriteReg(R14, 0x20000001)  returns 0x00 (0000ms, 0804ms total)
T20A4 001:235 JLINK_WriteReg(R15 (PC), 0x20000092)  returns 0x00 (0000ms, 0804ms total)
T20A4 001:235 JLINK_WriteReg(XPSR, 0x01000000)  returns 0x00 (0000ms, 0804ms total)
T20A4 001:235 JLINK_WriteReg(MSP, 0x20001000)  returns 0x00 (0000ms, 0804ms total)
T20A4 001:235 JLINK_WriteReg(PSP, 0x20001000)  returns 0x00 (0000ms, 0804ms total)
T20A4 001:235 JLINK_WriteReg(CFBP, 0x00000000)  returns 0x00 (0000ms, 0804ms total)
T20A4 001:235 JLINK_SetBPEx(Addr = 0x20000000, Type = 0xFFFFFFF2)  returns 0x0000000D (0000ms, 0804ms total)
T20A4 001:235 JLINK_Go() >0x2C8 JTAG> >0x1E8 JTAG> >0x1E8 JTAG> >0x1E8 JTAG> >0x1E8 JTAG> >0x1E8 JTAG> >0x218 JTAG> >0x218 JTAG> (0010ms, 0814ms total)
T20A4 001:245 JLINK_IsHalted() >0x170 JTAG>  returns FALSE (0001ms, 0815ms total)
T20A4 001:251 JLINK_IsHalted() >0x170 JTAG>  returns FALSE (0001ms, 0815ms total)
T20A4 001:253 JLINK_IsHalted() >0x170 JTAG>  returns FALSE (0000ms, 0814ms total)
T20A4 001:254 JLINK_IsHalted() >0x170 JTAG> >0x1598 JTAG> >0x1D8 JTAG>  returns TRUE (0005ms, 0819ms total)
T20A4 001:259 JLINK_ReadReg(R15 (PC))  returns 0x20000000 (0000ms, 0814ms total)
T20A4 001:259 JLINK_ClrBPEx(BPHandle = 0x0000000D)  returns 0x00 (0001ms, 0815ms total)
T20A4 001:260 JLINK_ReadReg(R0)  returns 0x00000000 (0000ms, 0815ms total)
T20A4 001:260 JLINK_WriteMem(0x20000128, 0x0400 Bytes, ...) -- Data:  00 00 00 00 00 00 00 00 00 00 00 00 00 00 00 00 ... >0x30A0 JTAG>  returns 0x400 (0007ms, 0822ms total)
T20A4 001:267 JLINK_WriteReg(R0, 0x00002400)  returns 0x00 (0000ms, 0822ms total)
T20A4 001:267 JLINK_WriteReg(R1, 0x00000400)  returns 0x00 (0000ms, 0822ms total)
T20A4 001:267 JLINK_WriteReg(R2, 0x20000128)  returns 0x00 (0000ms, 0822ms total)
T20A4 001:267 JLINK_WriteReg(R3, 0x00000000)  returns 0x00 (0000ms, 0822ms total)
T20A4 001:267 JLINK_WriteReg(R4, 0x00000000)  returns 0x00 (0000ms, 0822ms total)
T20A4 001:267 JLINK_WriteReg(R5, 0x00000000)  returns 0x00 (0000ms, 0822ms total)
T20A4 001:267 JLINK_WriteReg(R6, 0x00000000)  returns 0x00 (0000ms, 0822ms total)
T20A4 001:267 JLINK_WriteReg(R7, 0x00000000)  returns 0x00 (0000ms, 0822ms total)
T20A4 001:267 JLINK_WriteReg(R8, 0x00000000)  returns 0x00 (0000ms, 0822ms total)
T20A4 001:267 JLINK_WriteReg(R9, 0x20000124)  returns 0x00 (0000ms, 0822ms total)
T20A4 001:267 JLINK_WriteReg(R10, 0x00000000)  returns 0x00 (0000ms, 0822ms total)
T20A4 001:267 JLINK_WriteReg(R11, 0x00000000)  returns 0x00 (0000ms, 0822ms total)
T20A4 001:267 JLINK_WriteReg(R12, 0x00000000)  returns 0x00 (0000ms, 0822ms total)
T20A4 001:267 JLINK_WriteReg(R13 (SP), 0x20001000)  returns 0x00 (0000ms, 0822ms total)
T20A4 001:268 JLINK_WriteReg(R14, 0x20000001)  returns 0x00 (0000ms, 0822ms total)
T20A4 001:268 JLINK_WriteReg(R15 (PC), 0x20000092)  returns 0x00 (0000ms, 0822ms total)
T20A4 001:268 JLINK_WriteReg(XPSR, 0x01000000)  returns 0x00 (0000ms, 0822ms total)
T20A4 001:268 JLINK_WriteReg(MSP, 0x20001000)  returns 0x00 (0000ms, 0822ms total)
T20A4 001:268 JLINK_WriteReg(PSP, 0x20001000)  returns 0x00 (0000ms, 0822ms total)
T20A4 001:268 JLINK_WriteReg(CFBP, 0x00000000)  returns 0x00 (0000ms, 0822ms total)
T20A4 001:268 JLINK_SetBPEx(Addr = 0x20000000, Type = 0xFFFFFFF2)  returns 0x0000000E (0000ms, 0822ms total)
T20A4 001:268 JLINK_Go() >0x2C8 JTAG> >0x1E8 JTAG> >0x1E8 JTAG> >0x1E8 JTAG> >0x1E8 JTAG> >0x1E8 JTAG> >0x218 JTAG> >0x218 JTAG> (0008ms, 0830ms total)
T20A4 001:276 JLINK_IsHalted() >0x170 JTAG>  returns FALSE (0001ms, 0831ms total)
T20A4 001:280 JLINK_IsHalted() >0x170 JTAG>  returns FALSE (0000ms, 0830ms total)
T20A4 001:281 JLINK_IsHalted() >0x170 JTAG>  returns FALSE (0001ms, 0831ms total)
T20A4 001:283 JLINK_IsHalted() >0x170 JTAG>  returns FALSE (0001ms, 0831ms total)
T20A4 001:285 JLINK_IsHalted() >0x170 JTAG> >0x1598 JTAG> >0x1D8 JTAG>  returns TRUE (0006ms, 0836ms total)
T20A4 001:291 JLINK_ReadReg(R15 (PC))  returns 0x20000000 (0000ms, 0830ms total)
T20A4 001:291 JLINK_ClrBPEx(BPHandle = 0x0000000E)  returns 0x00 (0000ms, 0830ms total)
T20A4 001:291 JLINK_ReadReg(R0)  returns 0x00000000 (0000ms, 0830ms total)
T20A4 001:292 JLINK_WriteMem(0x20000128, 0x0400 Bytes, ...) -- Data:  00 00 00 00 00 00 00 00 00 00 00 00 00 00 00 00 ... >0x30A0 JTAG>  returns 0x400 (0007ms, 0837ms total)
T20A4 001:299 JLINK_WriteReg(R0, 0x00002800)  returns 0x00 (0000ms, 0837ms total)
T20A4 001:299 JLINK_WriteReg(R1, 0x00000400)  returns 0x00 (0000ms, 0837ms total)
T20A4 001:299 JLINK_WriteReg(R2, 0x20000128)  returns 0x00 (0000ms, 0837ms total)
T20A4 001:299 JLINK_WriteReg(R3, 0x00000000)  returns 0x00 (0000ms, 0837ms total)
T20A4 001:299 JLINK_WriteReg(R4, 0x00000000)  returns 0x00 (0000ms, 0837ms total)
T20A4 001:299 JLINK_WriteReg(R5, 0x00000000)  returns 0x00 (0000ms, 0837ms total)
T20A4 001:299 JLINK_WriteReg(R6, 0x00000000)  returns 0x00 (0000ms, 0837ms total)
T20A4 001:299 JLINK_WriteReg(R7, 0x00000000)  returns 0x00 (0000ms, 0837ms total)
T20A4 001:299 JLINK_WriteReg(R8, 0x00000000)  returns 0x00 (0000ms, 0837ms total)
T20A4 001:299 JLINK_WriteReg(R9, 0x20000124)  returns 0x00 (0000ms, 0837ms total)
T20A4 001:299 JLINK_WriteReg(R10, 0x00000000)  returns 0x00 (0000ms, 0837ms total)
T20A4 001:299 JLINK_WriteReg(R11, 0x00000000)  returns 0x00 (0000ms, 0837ms total)
T20A4 001:299 JLINK_WriteReg(R12, 0x00000000)  returns 0x00 (0000ms, 0837ms total)
T20A4 001:299 JLINK_WriteReg(R13 (SP), 0x20001000)  returns 0x00 (0000ms, 0837ms total)
T20A4 001:299 JLINK_WriteReg(R14, 0x20000001)  returns 0x00 (0000ms, 0837ms total)
T20A4 001:299 JLINK_WriteReg(R15 (PC), 0x20000092)  returns 0x00 (0000ms, 0837ms total)
T20A4 001:299 JLINK_WriteReg(XPSR, 0x01000000)  returns 0x00 (0000ms, 0837ms total)
T20A4 001:299 JLINK_WriteReg(MSP, 0x20001000)  returns 0x00 (0000ms, 0837ms total)
T20A4 001:299 JLINK_WriteReg(PSP, 0x20001000)  returns 0x00 (0000ms, 0837ms total)
T20A4 001:299 JLINK_WriteReg(CFBP, 0x00000000)  returns 0x00 (0000ms, 0837ms total)
T20A4 001:299 JLINK_SetBPEx(Addr = 0x20000000, Type = 0xFFFFFFF2)  returns 0x0000000F (0000ms, 0837ms total)
T20A4 001:299 JLINK_Go() >0x2C8 JTAG> >0x1E8 JTAG> >0x1E8 JTAG> >0x1E8 JTAG> >0x1E8 JTAG> >0x1E8 JTAG> >0x218 JTAG> >0x218 JTAG> (0009ms, 0846ms total)
T20A4 001:308 JLINK_IsHalted() >0x170 JTAG>  returns FALSE (0001ms, 0847ms total)
T20A4 001:310 JLINK_IsHalted() >0x170 JTAG>  returns FALSE (0001ms, 0847ms total)
T20A4 001:312 JLINK_IsHalted() >0x170 JTAG>  returns FALSE (0001ms, 0847ms total)
T20A4 001:318 JLINK_IsHalted() >0x170 JTAG> >0x1598 JTAG> >0x1D8 JTAG>  returns TRUE (0005ms, 0851ms total)
T20A4 001:323 JLINK_ReadReg(R15 (PC))  returns 0x20000000 (0001ms, 0847ms total)
T20A4 001:324 JLINK_ClrBPEx(BPHandle = 0x0000000F)  returns 0x00 (0000ms, 0847ms total)
T20A4 001:324 JLINK_ReadReg(R0)  returns 0x00000000 (0000ms, 0847ms total)
T20A4 001:324 JLINK_WriteMem(0x20000128, 0x0400 Bytes, ...) -- Data:  87 00 00 00 DC 05 00 00 88 00 00 00 DC 05 00 00 ... >0x30A0 JTAG>  returns 0x400 (0007ms, 0854ms total)
T20A4 001:331 JLINK_WriteReg(R0, 0x00002C00)  returns 0x00 (0000ms, 0854ms total)
T20A4 001:331 JLINK_WriteReg(R1, 0x00000400)  returns 0x00 (0000ms, 0854ms total)
T20A4 001:331 JLINK_WriteReg(R2, 0x20000128)  returns 0x00 (0000ms, 0854ms total)
T20A4 001:331 JLINK_WriteReg(R3, 0x00000000)  returns 0x00 (0000ms, 0854ms total)
T20A4 001:331 JLINK_WriteReg(R4, 0x00000000)  returns 0x00 (0000ms, 0854ms total)
T20A4 001:331 JLINK_WriteReg(R5, 0x00000000)  returns 0x00 (0000ms, 0854ms total)
T20A4 001:331 JLINK_WriteReg(R6, 0x00000000)  returns 0x00 (0000ms, 0854ms total)
T20A4 001:331 JLINK_WriteReg(R7, 0x00000000)  returns 0x00 (0000ms, 0854ms total)
T20A4 001:331 JLINK_WriteReg(R8, 0x00000000)  returns 0x00 (0000ms, 0854ms total)
T20A4 001:331 JLINK_WriteReg(R9, 0x20000124)  returns 0x00 (0000ms, 0854ms total)
T20A4 001:331 JLINK_WriteReg(R10, 0x00000000)  returns 0x00 (0000ms, 0854ms total)
T20A4 001:331 JLINK_WriteReg(R11, 0x00000000)  returns 0x00 (0001ms, 0855ms total)
T20A4 001:332 JLINK_WriteReg(R12, 0x00000000)  returns 0x00 (0000ms, 0855ms total)
T20A4 001:332 JLINK_WriteReg(R13 (SP), 0x20001000)  returns 0x00 (0000ms, 0855ms total)
T20A4 001:332 JLINK_WriteReg(R14, 0x20000001)  returns 0x00 (0000ms, 0855ms total)
T20A4 001:332 JLINK_WriteReg(R15 (PC), 0x20000092)  returns 0x00 (0000ms, 0855ms total)
T20A4 001:332 JLINK_WriteReg(XPSR, 0x01000000)  returns 0x00 (0000ms, 0855ms total)
T20A4 001:332 JLINK_WriteReg(MSP, 0x20001000)  returns 0x00 (0000ms, 0855ms total)
T20A4 001:332 JLINK_WriteReg(PSP, 0x20001000)  returns 0x00 (0000ms, 0855ms total)
T20A4 001:332 JLINK_WriteReg(CFBP, 0x00000000)  returns 0x00 (0000ms, 0855ms total)
T20A4 001:332 JLINK_SetBPEx(Addr = 0x20000000, Type = 0xFFFFFFF2)  returns 0x00000010 (0000ms, 0855ms total)
T20A4 001:332 JLINK_Go() >0x2C8 JTAG> >0x1E8 JTAG> >0x1E8 JTAG> >0x1E8 JTAG> >0x1E8 JTAG> >0x1E8 JTAG> >0x218 JTAG> >0x218 JTAG> (0009ms, 0864ms total)
T20A4 001:341 JLINK_IsHalted() >0x170 JTAG>  returns FALSE (0001ms, 0865ms total)
T20A4 001:343 JLINK_IsHalted() >0x170 JTAG>  returns FALSE (0000ms, 0864ms total)
T20A4 001:344 JLINK_IsHalted() >0x170 JTAG>  returns FALSE (0001ms, 0865ms total)
T20A4 001:346 JLINK_IsHalted() >0x170 JTAG>  returns FALSE (0001ms, 0865ms total)
T20A4 001:351 JLINK_IsHalted() >0x170 JTAG> >0x1598 JTAG> >0x1D8 JTAG>  returns TRUE (0006ms, 0870ms total)
T20A4 001:357 JLINK_ReadReg(R15 (PC))  returns 0x20000000 (0000ms, 0864ms total)
T20A4 001:357 JLINK_ClrBPEx(BPHandle = 0x00000010)  returns 0x00 (0000ms, 0864ms total)
T20A4 001:357 JLINK_ReadReg(R0)  returns 0x00000000 (0000ms, 0864ms total)
T20A4 001:357 JLINK_WriteMem(0x20000128, 0x0400 Bytes, ...) -- Data:  00 00 00 00 00 00 00 00 00 00 00 00 00 00 00 00 ... >0x30A0 JTAG>  returns 0x400 (0007ms, 0871ms total)
T20A4 001:364 JLINK_WriteReg(R0, 0x00003000)  returns 0x00 (0001ms, 0872ms total)
T20A4 001:365 JLINK_WriteReg(R1, 0x00000400)  returns 0x00 (0000ms, 0872ms total)
T20A4 001:365 JLINK_WriteReg(R2, 0x20000128)  returns 0x00 (0000ms, 0872ms total)
T20A4 001:365 JLINK_WriteReg(R3, 0x00000000)  returns 0x00 (0000ms, 0872ms total)
T20A4 001:365 JLINK_WriteReg(R4, 0x00000000)  returns 0x00 (0000ms, 0872ms total)
T20A4 001:365 JLINK_WriteReg(R5, 0x00000000)  returns 0x00 (0000ms, 0872ms total)
T20A4 001:365 JLINK_WriteReg(R6, 0x00000000)  returns 0x00 (0000ms, 0872ms total)
T20A4 001:365 JLINK_WriteReg(R7, 0x00000000)  returns 0x00 (0000ms, 0872ms total)
T20A4 001:365 JLINK_WriteReg(R8, 0x00000000)  returns 0x00 (0000ms, 0872ms total)
T20A4 001:365 JLINK_WriteReg(R9, 0x20000124)  returns 0x00 (0000ms, 0872ms total)
T20A4 001:365 JLINK_WriteReg(R10, 0x00000000)  returns 0x00 (0000ms, 0872ms total)
T20A4 001:365 JLINK_WriteReg(R11, 0x00000000)  returns 0x00 (0000ms, 0872ms total)
T20A4 001:365 JLINK_WriteReg(R12, 0x00000000)  returns 0x00 (0000ms, 0872ms total)
T20A4 001:365 JLINK_WriteReg(R13 (SP), 0x20001000)  returns 0x00 (0000ms, 0872ms total)
T20A4 001:365 JLINK_WriteReg(R14, 0x20000001)  returns 0x00 (0000ms, 0872ms total)
T20A4 001:365 JLINK_WriteReg(R15 (PC), 0x20000092)  returns 0x00 (0000ms, 0872ms total)
T20A4 001:365 JLINK_WriteReg(XPSR, 0x01000000)  returns 0x00 (0000ms, 0872ms total)
T20A4 001:365 JLINK_WriteReg(MSP, 0x20001000)  returns 0x00 (0000ms, 0872ms total)
T20A4 001:365 JLINK_WriteReg(PSP, 0x20001000)  returns 0x00 (0000ms, 0872ms total)
T20A4 001:365 JLINK_WriteReg(CFBP, 0x00000000)  returns 0x00 (0000ms, 0872ms total)
T20A4 001:365 JLINK_SetBPEx(Addr = 0x20000000, Type = 0xFFFFFFF2)  returns 0x00000011 (0000ms, 0872ms total)
